
T1644 000:373 SEGGER J-Link V4.96d Log File (0001ms, 0277ms total)
T1644 000:373 DLL Compiled: Jan 29 2015 11:45:37 (0001ms, 0277ms total)
T1644 000:373 Logging started @ 2019-02-03 16:40 (0001ms, 0277ms total)
T1644 000:374 JLINK_SetWarnOutHandler(...) (0000ms, 0277ms total)
T1644 000:374 JLINK_OpenEx(...)
Firmware: J-Link ARM-OB STM32 compiled Aug 22 2012 19:52:04
Hardware: V7.00
S/N: 20090928
Feature(s): RDI,FlashDL,FlashBP,JFlash,GDBFull  returns O.K. (0270ms, 0547ms total)
T1644 000:644 JLINK_SetErrorOutHandler(...) (0000ms, 0547ms total)
T1644 000:644 JLINK_ExecCommand("ProjectFile = "D:\µ¥Æ¬»úÑ§Ï°\STM32F1\UCOSIII\UCOSIII_F4\USER\JLinkSettings.ini"", ...)  returns 0x00 (0001ms, 0548ms total)
T1644 000:653 JLINK_ExecCommand("Device = STM32F407ZG", ...)Device "STM32F407ZG" selected.  returns 0x00 (0009ms, 0557ms total)
T1644 000:662 JLINK_ExecCommand("DisableConnectionTimeout", ...)  returns 0x01 (0000ms, 0557ms total)
T1644 000:662 JLINK_GetHardwareVersion()  returns 0x11170 (0000ms, 0557ms total)
T1644 000:662 JLINK_GetDLLVersion()  returns 49604 (0000ms, 0557ms total)
T1644 000:662 JLINK_GetFirmwareString(...) (0000ms, 0557ms total)
T1644 000:807 JLINK_GetDLLVersion()  returns 49604 (0000ms, 0557ms total)
T1644 000:807 JLINK_GetCompileDateTime() (0000ms, 0557ms total)
T1644 000:824 JLINK_GetFirmwareString(...) (0000ms, 0557ms total)
T1644 000:837 JLINK_GetHardwareVersion()  returns 0x11170 (0000ms, 0557ms total)
T1644 000:895 JLINK_TIF_Select(JLINKARM_TIF_SWD)  returns 0x00 (0001ms, 0558ms total)
T1644 000:896 JLINK_SetSpeed(20000) (0000ms, 0558ms total)
T1644 000:896 JLINK_GetId() >0x108 TIF>Found SWD-DP with ID 0x2BA01477 >0x0D TIF> >0x28 TIF> >0x0D TIF> >0x28 TIF> >0x0D TIF> >0x21 TIF> >0x0D TIF> >0x28 TIF> >0x0D TIF> >0x28 TIF> >0x0D TIF> >0x28 TIF> >0x0D TIF> >0x21 TIF> >0x0D TIF> >0x21 TIF> >0x0D TIF> >0x28 TIF> >0x0D TIF> >0x21 TIF> >0x0D TIF> >0x21 TIF> >0x0D TIF> >0x28 TIF> >0x0D TIF> >0x21 TIF> >0x0D TIF> >0x21 TIF> >0x108 TIF>Found SWD-DP with ID 0x2BA01477 >0x0D TIF> >0x21 TIF> >0x0D TIF> >0x28 TIF> >0x0D TIF> >0x28 TIF> >0x0D TIF> >0x21 TIF>
 >0x0D TIF> >0x28 TIF> >0x0D TIF> >0x21 TIF> >0x0D TIF> >0x21 TIF> >0x0D TIF> >0x21 TIF> >0x0D TIF> >0x21 TIF> >0x0D TIF> >0x28 TIF> >0x0D TIF> >0x28 TIF> >0x0D TIF> >0x21 TIF> >0x0D TIF> >0x28 TIF> >0x0D TIF> >0x28 TIF> >0x0D TIF> >0x28 TIF> >0x0D TIF> >0x21 TIF> >0x0D TIF> >0x21 TIF> >0x0D TIF> >0x28 TIF> >0x0D TIF> >0x21 TIF> >0x0D TIF> >0x21 TIF>Found Cortex-M4 r0p1, Little endian. -- CPU_WriteMem(4 bytes @ 0xE0002000) -- CPU_ReadMem(4 bytes @ 0xE000EDF0) -- CPU_ReadMem(4 bytes @ 0xE0002000)
FPUnit: 6 code (BP) slots and 2 literal slots -- CPU_ReadMem(4 bytes @ 0xE000EDFC) -- CPU_ReadMem(4 bytes @ 0xE0001000) -- CPU_WriteMem(4 bytes @ 0xE0001000) -- CPU_ReadMem(4 bytes @ 0xE000ED88) -- CPU_WriteMem(4 bytes @ 0xE000ED88) -- CPU_ReadMem(4 bytes @ 0xE000ED88) -- CPU_WriteMem(4 bytes @ 0xE000ED88) -- CPU_ReadMem(4 bytes @ 0xE00FF010)TPIU fitted. -- CPU_ReadMem(4 bytes @ 0xE00FF014)ETM fitted. -- CPU_ReadMem(4 bytes @ 0xE00FF018) >0x0D TIF> >0x21 TIF>  returns 0x2BA01477 (0116ms, 0674ms total)
T1644 001:013 JLINK_GetDLLVersion()  returns 49604 (0000ms, 0674ms total)
T1644 001:013 JLINK_CORE_GetFound()  returns 0xE0000FF (0002ms, 0676ms total)
T1644 001:015 JLINK_GetDebugInfo(0x100) -- Value=0xE00FF003  returns 0x00 (0000ms, 0676ms total)
T1644 001:040 JLINK_ReadMem (0xE00FF000, 0x0020 Bytes, ...) -- CPU is running -- CPU_ReadMem(32 bytes @ 0xE00FF000) - Data: 03 F0 F0 FF 03 20 F0 FF 03 30 F0 FF 03 10 F0 FF ...  returns 0x00 (0001ms, 0677ms total)
T1644 001:041 JLINK_ReadMem (0xE000EFF0, 0x0010 Bytes, ...) -- CPU is running -- CPU_ReadMem(16 bytes @ 0xE000EFF0) - Data: 0D 00 00 00 E0 00 00 00 05 00 00 00 B1 00 00 00  returns 0x00 (0000ms, 0677ms total)
T1644 001:041 JLINK_ReadMem (0xE000EFD0, 0x0020 Bytes, ...) -- CPU is running -- CPU_ReadMem(32 bytes @ 0xE000EFD0) - Data: 04 00 00 00 00 00 00 00 00 00 00 00 00 00 00 00 ...  returns 0x00 (0001ms, 0678ms total)
T1644 001:042 JLINK_ReadMem (0xE0001FF0, 0x0010 Bytes, ...) -- CPU is running -- CPU_ReadMem(16 bytes @ 0xE0001FF0) - Data: 0D 00 00 00 E0 00 00 00 05 00 00 00 B1 00 00 00  returns 0x00 (0002ms, 0680ms total)
T1644 001:044 JLINK_ReadMem (0xE0001FD0, 0x0020 Bytes, ...) -- CPU is running -- CPU_ReadMem(32 bytes @ 0xE0001FD0) - Data: 04 00 00 00 00 00 00 00 00 00 00 00 00 00 00 00 ...  returns 0x00 (0002ms, 0682ms total)
T1644 001:046 JLINK_ReadMem (0xE0002FF0, 0x0010 Bytes, ...) -- CPU is running -- CPU_ReadMem(16 bytes @ 0xE0002FF0) - Data: 0D 00 00 00 E0 00 00 00 05 00 00 00 B1 00 00 00  returns 0x00 (0001ms, 0683ms total)
T1644 001:047 JLINK_ReadMem (0xE0002FD0, 0x0020 Bytes, ...) -- CPU is running -- CPU_ReadMem(32 bytes @ 0xE0002FD0) - Data: 04 00 00 00 00 00 00 00 00 00 00 00 00 00 00 00 ...  returns 0x00 (0001ms, 0684ms total)
T1644 001:048 JLINK_ReadMem (0xE0000FF0, 0x0010 Bytes, ...) -- CPU is running -- CPU_ReadMem(16 bytes @ 0xE0000FF0) - Data: 0D 00 00 00 E0 00 00 00 05 00 00 00 B1 00 00 00  returns 0x00 (0001ms, 0685ms total)
T1644 001:049 JLINK_ReadMem (0xE0000FD0, 0x0020 Bytes, ...) -- CPU is running -- CPU_ReadMem(32 bytes @ 0xE0000FD0) - Data: 04 00 00 00 00 00 00 00 00 00 00 00 00 00 00 00 ...  returns 0x00 (0001ms, 0686ms total)
T1644 001:050 JLINK_ReadMem (0xE0040FF0, 0x0010 Bytes, ...) -- CPU is running -- CPU_ReadMem(16 bytes @ 0xE0040FF0) - Data: 0D 00 00 00 90 00 00 00 05 00 00 00 B1 00 00 00  returns 0x00 (0001ms, 0687ms total)
T1644 001:051 JLINK_ReadMem (0xE0040FD0, 0x0020 Bytes, ...) -- CPU is running -- CPU_ReadMem(32 bytes @ 0xE0040FD0) - Data: 04 00 00 00 00 00 00 00 00 00 00 00 00 00 00 00 ...  returns 0x00 (0001ms, 0688ms total)
T1644 001:052 JLINK_ReadMem (0xE0041FF0, 0x0010 Bytes, ...) -- CPU is running -- CPU_ReadMem(16 bytes @ 0xE0041FF0) - Data: 0D 00 00 00 90 00 00 00 05 00 00 00 B1 00 00 00  returns 0x00 (0001ms, 0689ms total)
T1644 001:053 JLINK_ReadMem (0xE0041FD0, 0x0020 Bytes, ...) -- CPU is running -- CPU_ReadMem(32 bytes @ 0xE0041FD0) - Data: 04 00 00 00 00 00 00 00 00 00 00 00 00 00 00 00 ...  returns 0x00 (0001ms, 0690ms total)
T1644 001:054 JLINK_ReadMemU32(0xE000EF40, 0x0001 Items, ...) -- CPU is running -- CPU_ReadMem(4 bytes @ 0xE000EF40) - Data: 21 00 11 10  returns 0x01 (0000ms, 0690ms total)
T1644 001:054 JLINK_ReadMemU32(0xE000EF44, 0x0001 Items, ...) -- CPU is running -- CPU_ReadMem(4 bytes @ 0xE000EF44) - Data: 11 00 00 11  returns 0x01 (0001ms, 0691ms total)
T1644 001:055 JLINK_ReadMemU32(0xE000ED00, 0x0001 Items, ...) -- CPU is running -- CPU_ReadMem(4 bytes @ 0xE000ED00) - Data: 41 C2 0F 41  returns 0x01 (0001ms, 0692ms total)
T1644 001:056 JLINK_SetResetType(JLINKARM_RESET_TYPE_NORMAL)  returns JLINKARM_RESET_TYPE_NORMAL (0000ms, 0692ms total)
T1644 001:056 JLINK_Reset() -- CPU is running -- CPU_WriteMem(4 bytes @ 0xE000EDF0) -- CPU is running -- CPU_WriteMem(4 bytes @ 0xE000EDFC) >0x35 TIF> -- CPU is running -- CPU_WriteMem(4 bytes @ 0xE000ED0C) -- CPU is running -- CPU_ReadMem(4 bytes @ 0xE000EDF0) -- CPU is running -- CPU_ReadMem(4 bytes @ 0xE000EDF0) -- CPU is running -- CPU_WriteMem(4 bytes @ 0xE000EDF0) -- CPU is running -- CPU_WriteMem(4 bytes @ 0xE000EDFC) -- CPU is running -- CPU_ReadMem(4 bytes @ 0xE000EDF0)
 -- CPU_WriteMem(4 bytes @ 0xE0002000) -- CPU_ReadMem(4 bytes @ 0xE000EDFC) -- CPU_ReadMem(4 bytes @ 0xE0001000) (0023ms, 0715ms total)
T1644 001:079 JLINK_Halt()  returns 0x00 (0000ms, 0715ms total)
T1644 001:079 JLINK_IsHalted()  returns TRUE (0000ms, 0715ms total)
T1644 001:079 JLINK_ReadMemU32(0xE000EDF0, 0x0001 Items, ...) -- CPU_ReadMem(4 bytes @ 0xE000EDF0) - Data: 03 00 03 00  returns 0x01 (0001ms, 0716ms total)
T1644 001:080 JLINK_WriteU32(0xE000EDF0, 0xA05F0003) -- CPU_WriteMem(4 bytes @ 0xE000EDF0)  returns 0x00 (0001ms, 0717ms total)
T1644 001:081 JLINK_WriteU32(0xE000EDFC, 0x01000000) -- CPU_WriteMem(4 bytes @ 0xE000EDFC)  returns 0x00 (0000ms, 0717ms total)
T1644 001:232 JLINK_GetHWStatus(...)  returns 0x00 (0000ms, 0717ms total)
T1644 001:304 JLINK_GetNumBPUnits(Type = 0xFFFFFF00)  returns 0x06 (0000ms, 0717ms total)
T1644 001:304 JLINK_GetNumBPUnits(Type = 0xF0)  returns 0x2000 (0000ms, 0717ms total)
T1644 001:304 JLINK_GetNumWPUnits()  returns 0x04 (0000ms, 0717ms total)
T1644 001:342 JLINK_GetSpeed()  returns 0xFA0 (0000ms, 0717ms total)
T1644 001:387 JLINK_ReadMemU32(0xE000E004, 0x0001 Items, ...) -- CPU_ReadMem(4 bytes @ 0xE000E004) - Data: 02 00 00 00  returns 0x01 (0001ms, 0718ms total)
T1644 001:388 JLINK_ReadMemU32(0xE000E004, 0x0001 Items, ...) -- CPU_ReadMem(4 bytes @ 0xE000E004) - Data: 02 00 00 00  returns 0x01 (0001ms, 0719ms total)
T1644 001:389 JLINK_WriteMem(0xE0001000, 0x001C Bytes, ...) - Data: 01 00 00 00 00 00 00 00 00 00 00 00 00 00 00 00 ... -- CPU_WriteMem(28 bytes @ 0xE0001000)  returns 0x1C (0003ms, 0722ms total)
T1644 001:392 JLINK_ReadMem (0xE0001000, 0x001C Bytes, ...) -- CPU_ReadMem(28 bytes @ 0xE0001000) - Data: 01 00 00 40 00 00 00 00 00 00 00 00 00 00 00 00 ...  returns 0x00 (0001ms, 0723ms total)
T1644 001:393 JLINK_Halt()  returns 0x00 (0000ms, 0723ms total)
T1644 001:393 JLINK_IsHalted()  returns TRUE (0000ms, 0723ms total)
T1644 001:403 JLINK_WriteMem(0x20000000, 0x0180 Bytes, ...) - Data: 00 BE 0A E0 0D 78 2D 06 68 40 08 24 40 00 00 D3 ... -- CPU_WriteMem(384 bytes @ 0x20000000)  returns 0x180 (0007ms, 0730ms total)
T1644 001:410 JLINK_WriteReg(R0, 0x08000000)  returns 0x00 (0000ms, 0730ms total)
T1644 001:410 JLINK_WriteReg(R1, 0x0A037A00)  returns 0x00 (0000ms, 0730ms total)
T1644 001:410 JLINK_WriteReg(R2, 0x00000001)  returns 0x00 (0000ms, 0730ms total)
T1644 001:410 JLINK_WriteReg(R3, 0x00000000)  returns 0x00 (0000ms, 0730ms total)
T1644 001:410 JLINK_WriteReg(R4, 0x00000000)  returns 0x00 (0000ms, 0730ms total)
T1644 001:410 JLINK_WriteReg(R5, 0x00000000)  returns 0x00 (0000ms, 0730ms total)
T1644 001:410 JLINK_WriteReg(R6, 0x00000000)  returns 0x00 (0000ms, 0730ms total)
T1644 001:410 JLINK_WriteReg(R7, 0x00000000)  returns 0x00 (0000ms, 0730ms total)
T1644 001:410 JLINK_WriteReg(R8, 0x00000000)  returns 0x00 (0001ms, 0731ms total)
T1644 001:411 JLINK_WriteReg(R9, 0x2000017C)  returns 0x00 (0000ms, 0731ms total)
T1644 001:411 JLINK_WriteReg(R10, 0x00000000)  returns 0x00 (0000ms, 0731ms total)
T1644 001:411 JLINK_WriteReg(R11, 0x00000000)  returns 0x00 (0000ms, 0731ms total)
T1644 001:411 JLINK_WriteReg(R12, 0x00000000)  returns 0x00 (0000ms, 0731ms total)
T1644 001:411 JLINK_WriteReg(R13 (SP), 0x20001000)  returns 0x00 (0000ms, 0731ms total)
T1644 001:411 JLINK_WriteReg(R14, 0x20000001)  returns 0x00 (0000ms, 0731ms total)
T1644 001:411 JLINK_WriteReg(R15 (PC), 0x20000054)  returns 0x00 (0000ms, 0731ms total)
T1644 001:411 JLINK_WriteReg(XPSR, 0x01000000)  returns 0x00 (0000ms, 0731ms total)
T1644 001:411 JLINK_WriteReg(MSP, 0x20001000)  returns 0x00 (0000ms, 0731ms total)
T1644 001:411 JLINK_WriteReg(PSP, 0x20001000)  returns 0x00 (0000ms, 0731ms total)
T1644 001:411 JLINK_WriteReg(CFBP, 0x00000000)  returns 0x00 (0000ms, 0731ms total)
T1644 001:411 JLINK_SetBPEx(Addr = 0x20000000, Type = 0xFFFFFFF2) -- CPU_ReadMem(2 bytes @ 0x20000000)  returns 0x00000001 (0001ms, 0732ms total)
T1644 001:412 JLINK_Go() -- CPU_WriteMem(2 bytes @ 0x20000000) -- CPU_WriteMem(4 bytes @ 0xE0002008) -- CPU_WriteMem(4 bytes @ 0xE000200C) -- CPU_WriteMem(4 bytes @ 0xE0002010) -- CPU_WriteMem(4 bytes @ 0xE0002014) -- CPU_WriteMem(4 bytes @ 0xE0002018) -- CPU_WriteMem(4 bytes @ 0xE000201C) -- CPU_WriteMem(4 bytes @ 0xE0001004) (0006ms, 0738ms total)
T1644 001:418 JLINK_IsHalted() -- CPU_ReadMem(2 bytes @ 0x20000000)  returns TRUE (0004ms, 0742ms total)
T1644 001:422 JLINK_ReadReg(R15 (PC))  returns 0x20000000 (0000ms, 0738ms total)
T1644 001:422 JLINK_ClrBPEx(BPHandle = 0x00000001)  returns 0x00 (0001ms, 0739ms total)
T1644 001:423 JLINK_ReadReg(R0)  returns 0x00000000 (0000ms, 0739ms total)
T1644 001:423 JLINK_WriteReg(R0, 0x08000000)  returns 0x00 (0000ms, 0739ms total)
T1644 001:423 JLINK_WriteReg(R1, 0x00004000)  returns 0x00 (0001ms, 0740ms total)
T1644 001:424 JLINK_WriteReg(R2, 0x000000FF)  returns 0x00 (0000ms, 0740ms total)
T1644 001:424 JLINK_WriteReg(R3, 0x00000000)  returns 0x00 (0000ms, 0740ms total)
T1644 001:424 JLINK_WriteReg(R4, 0x00000000)  returns 0x00 (0000ms, 0740ms total)
T1644 001:424 JLINK_WriteReg(R5, 0x00000000)  returns 0x00 (0000ms, 0740ms total)
T1644 001:424 JLINK_WriteReg(R6, 0x00000000)  returns 0x00 (0000ms, 0740ms total)
T1644 001:424 JLINK_WriteReg(R7, 0x00000000)  returns 0x00 (0000ms, 0740ms total)
T1644 001:424 JLINK_WriteReg(R8, 0x00000000)  returns 0x00 (0000ms, 0740ms total)
T1644 001:424 JLINK_WriteReg(R9, 0x2000017C)  returns 0x00 (0000ms, 0740ms total)
T1644 001:424 JLINK_WriteReg(R10, 0x00000000)  returns 0x00 (0000ms, 0740ms total)
T1644 001:424 JLINK_WriteReg(R11, 0x00000000)  returns 0x00 (0000ms, 0740ms total)
T1644 001:424 JLINK_WriteReg(R12, 0x00000000)  returns 0x00 (0000ms, 0740ms total)
T1644 001:424 JLINK_WriteReg(R13 (SP), 0x20001000)  returns 0x00 (0000ms, 0740ms total)
T1644 001:424 JLINK_WriteReg(R14, 0x20000001)  returns 0x00 (0000ms, 0740ms total)
T1644 001:424 JLINK_WriteReg(R15 (PC), 0x20000020)  returns 0x00 (0000ms, 0740ms total)
T1644 001:424 JLINK_WriteReg(XPSR, 0x01000000)  returns 0x00 (0000ms, 0740ms total)
T1644 001:424 JLINK_WriteReg(MSP, 0x20001000)  returns 0x00 (0000ms, 0740ms total)
T1644 001:424 JLINK_WriteReg(PSP, 0x20001000)  returns 0x00 (0000ms, 0740ms total)
T1644 001:424 JLINK_WriteReg(CFBP, 0x00000000)  returns 0x00 (0001ms, 0741ms total)
T1644 001:425 JLINK_SetBPEx(Addr = 0x20000000, Type = 0xFFFFFFF2)  returns 0x00000002 (0000ms, 0741ms total)
T1644 001:425 JLINK_Go() (0001ms, 0742ms total)
T1644 001:427 JLINK_IsHalted() -- CPU_ReadMem(2 bytes @ 0x20000000)  returns TRUE (0004ms, 0747ms total)
T1644 001:431 JLINK_ReadReg(R15 (PC))  returns 0x20000000 (0000ms, 0743ms total)
T1644 001:431 JLINK_ClrBPEx(BPHandle = 0x00000002)  returns 0x00 (0000ms, 0743ms total)
T1644 001:431 JLINK_ReadReg(R0)  returns 0x00000001 (0000ms, 0743ms total)
T1644 001:431 JLINK_WriteReg(R0, 0x08000000)  returns 0x00 (0000ms, 0743ms total)
T1644 001:431 JLINK_WriteReg(R1, 0x00004000)  returns 0x00 (0000ms, 0743ms total)
T1644 001:431 JLINK_WriteReg(R2, 0x000000FF)  returns 0x00 (0000ms, 0743ms total)
T1644 001:431 JLINK_WriteReg(R3, 0x00000000)  returns 0x00 (0000ms, 0743ms total)
T1644 001:431 JLINK_WriteReg(R4, 0x00000000)  returns 0x00 (0000ms, 0743ms total)
T1644 001:431 JLINK_WriteReg(R5, 0x00000000)  returns 0x00 (0000ms, 0743ms total)
T1644 001:431 JLINK_WriteReg(R6, 0x00000000)  returns 0x00 (0000ms, 0743ms total)
T1644 001:431 JLINK_WriteReg(R7, 0x00000000)  returns 0x00 (0000ms, 0743ms total)
T1644 001:431 JLINK_WriteReg(R8, 0x00000000)  returns 0x00 (0000ms, 0743ms total)
T1644 001:431 JLINK_WriteReg(R9, 0x2000017C)  returns 0x00 (0000ms, 0743ms total)
T1644 001:431 JLINK_WriteReg(R10, 0x00000000)  returns 0x00 (0000ms, 0743ms total)
T1644 001:431 JLINK_WriteReg(R11, 0x00000000)  returns 0x00 (0001ms, 0744ms total)
T1644 001:432 JLINK_WriteReg(R12, 0x00000000)  returns 0x00 (0000ms, 0744ms total)
T1644 001:432 JLINK_WriteReg(R13 (SP), 0x20001000)  returns 0x00 (0000ms, 0744ms total)
T1644 001:432 JLINK_WriteReg(R14, 0x20000001)  returns 0x00 (0000ms, 0744ms total)
T1644 001:432 JLINK_WriteReg(R15 (PC), 0x200000BC)  returns 0x00 (0000ms, 0744ms total)
T1644 001:432 JLINK_WriteReg(XPSR, 0x01000000)  returns 0x00 (0000ms, 0744ms total)
T1644 001:432 JLINK_WriteReg(MSP, 0x20001000)  returns 0x00 (0000ms, 0744ms total)
T1644 001:432 JLINK_WriteReg(PSP, 0x20001000)  returns 0x00 (0000ms, 0744ms total)
T1644 001:432 JLINK_WriteReg(CFBP, 0x00000000)  returns 0x00 (0000ms, 0744ms total)
T1644 001:432 JLINK_SetBPEx(Addr = 0x20000000, Type = 0xFFFFFFF2)  returns 0x00000003 (0000ms, 0744ms total)
T1644 001:432 JLINK_Go() (0002ms, 0746ms total)
T1644 001:434 JLINK_IsHalted()  returns FALSE (0001ms, 0747ms total)
T1644 001:652 JLINK_IsHalted()  returns FALSE (0000ms, 0746ms total)
T1644 001:655 JLINK_IsHalted()  returns FALSE (0000ms, 0746ms total)
T1644 001:667 JLINK_IsHalted()  returns FALSE (0000ms, 0746ms total)
T1644 001:669 JLINK_IsHalted()  returns FALSE (0000ms, 0746ms total)
T1644 001:671 JLINK_IsHalted()  returns FALSE (0000ms, 0746ms total)
T1644 001:696 JLINK_IsHalted()  returns FALSE (0001ms, 0747ms total)
T1644 001:699 JLINK_IsHalted()  returns FALSE (0000ms, 0746ms total)
T1644 001:701 JLINK_IsHalted()  returns FALSE (0000ms, 0746ms total)
T1644 001:703 JLINK_IsHalted()  returns FALSE (0000ms, 0746ms total)
T1644 001:713 JLINK_IsHalted()  returns FALSE (0000ms, 0746ms total)
T1644 001:715 JLINK_IsHalted()  returns FALSE (0000ms, 0746ms total)
T1644 001:721 JLINK_IsHalted()  returns FALSE (0000ms, 0746ms total)
T1644 001:723 JLINK_IsHalted()  returns FALSE (0000ms, 0746ms total)
T1644 001:725 JLINK_IsHalted()  returns FALSE (0000ms, 0746ms total)
T1644 001:727 JLINK_IsHalted()  returns FALSE (0000ms, 0746ms total)
T1644 001:729 JLINK_IsHalted()  returns FALSE (0000ms, 0746ms total)
T1644 001:731 JLINK_IsHalted()  returns FALSE (0000ms, 0746ms total)
T1644 001:733 JLINK_IsHalted()  returns FALSE (0000ms, 0746ms total)
T1644 001:747 JLINK_IsHalted()  returns FALSE (0001ms, 0747ms total)
T1644 001:761 JLINK_IsHalted()  returns FALSE (0000ms, 0747ms total)
T1644 001:763 JLINK_IsHalted()  returns FALSE (0000ms, 0747ms total)
T1644 001:765 JLINK_IsHalted()  returns FALSE (0001ms, 0748ms total)
T1644 001:776 JLINK_IsHalted()  returns FALSE (0000ms, 0747ms total)
T1644 001:778 JLINK_IsHalted()  returns FALSE (0000ms, 0747ms total)
T1644 001:794 JLINK_IsHalted()  returns FALSE (0000ms, 0747ms total)
T1644 001:809 JLINK_IsHalted()  returns FALSE (0000ms, 0747ms total)
T1644 001:822 JLINK_IsHalted()  returns FALSE (0000ms, 0747ms total)
T1644 001:824 JLINK_IsHalted()  returns FALSE (0000ms, 0747ms total)
T1644 001:826 JLINK_IsHalted()  returns FALSE (0000ms, 0747ms total)
T1644 001:834 JLINK_IsHalted()  returns FALSE (0000ms, 0747ms total)
T1644 001:836 JLINK_IsHalted()  returns FALSE (0000ms, 0747ms total)
T1644 001:838 JLINK_IsHalted() -- CPU_ReadMem(2 bytes @ 0x20000000)  returns TRUE (0004ms, 0751ms total)
T1644 001:842 JLINK_ReadReg(R15 (PC))  returns 0x20000000 (0000ms, 0747ms total)
T1644 001:842 JLINK_ClrBPEx(BPHandle = 0x00000003)  returns 0x00 (0000ms, 0747ms total)
T1644 001:842 JLINK_ReadReg(R0)  returns 0x00000000 (0000ms, 0747ms total)
T1644 001:845 JLINK_WriteReg(R0, 0x08004000)  returns 0x00 (0000ms, 0747ms total)
T1644 001:845 JLINK_WriteReg(R1, 0x00004000)  returns 0x00 (0001ms, 0748ms total)
T1644 001:846 JLINK_WriteReg(R2, 0x000000FF)  returns 0x00 (0000ms, 0748ms total)
T1644 001:846 JLINK_WriteReg(R3, 0x00000000)  returns 0x00 (0000ms, 0748ms total)
T1644 001:846 JLINK_WriteReg(R4, 0x00000000)  returns 0x00 (0000ms, 0748ms total)
T1644 001:846 JLINK_WriteReg(R5, 0x00000000)  returns 0x00 (0000ms, 0748ms total)
T1644 001:846 JLINK_WriteReg(R6, 0x00000000)  returns 0x00 (0000ms, 0748ms total)
T1644 001:846 JLINK_WriteReg(R7, 0x00000000)  returns 0x00 (0000ms, 0748ms total)
T1644 001:846 JLINK_WriteReg(R8, 0x00000000)  returns 0x00 (0000ms, 0748ms total)
T1644 001:846 JLINK_WriteReg(R9, 0x2000017C)  returns 0x00 (0001ms, 0749ms total)
T1644 001:847 JLINK_WriteReg(R10, 0x00000000)  returns 0x00 (0000ms, 0749ms total)
T1644 001:847 JLINK_WriteReg(R11, 0x00000000)  returns 0x00 (0000ms, 0749ms total)
T1644 001:847 JLINK_WriteReg(R12, 0x00000000)  returns 0x00 (0000ms, 0749ms total)
T1644 001:847 JLINK_WriteReg(R13 (SP), 0x20001000)  returns 0x00 (0000ms, 0749ms total)
T1644 001:847 JLINK_WriteReg(R14, 0x20000001)  returns 0x00 (0000ms, 0749ms total)
T1644 001:847 JLINK_WriteReg(R15 (PC), 0x20000020)  returns 0x00 (0000ms, 0749ms total)
T1644 001:847 JLINK_WriteReg(XPSR, 0x01000000)  returns 0x00 (0000ms, 0749ms total)
T1644 001:847 JLINK_WriteReg(MSP, 0x20001000)  returns 0x00 (0000ms, 0749ms total)
T1644 001:847 JLINK_WriteReg(PSP, 0x20001000)  returns 0x00 (0000ms, 0749ms total)
T1644 001:847 JLINK_WriteReg(CFBP, 0x00000000)  returns 0x00 (0000ms, 0749ms total)
T1644 001:847 JLINK_SetBPEx(Addr = 0x20000000, Type = 0xFFFFFFF2)  returns 0x00000004 (0000ms, 0749ms total)
T1644 001:847 JLINK_Go() (0002ms, 0751ms total)
T1644 001:849 JLINK_IsHalted() -- CPU_ReadMem(2 bytes @ 0x20000000)  returns TRUE (0004ms, 0755ms total)
T1644 001:853 JLINK_ReadReg(R15 (PC))  returns 0x20000000 (0001ms, 0752ms total)
T1644 001:854 JLINK_ClrBPEx(BPHandle = 0x00000004)  returns 0x00 (0000ms, 0752ms total)
T1644 001:854 JLINK_ReadReg(R0)  returns 0x00000001 (0000ms, 0752ms total)
T1644 001:854 JLINK_WriteReg(R0, 0x08004000)  returns 0x00 (0000ms, 0752ms total)
T1644 001:854 JLINK_WriteReg(R1, 0x00004000)  returns 0x00 (0000ms, 0752ms total)
T1644 001:854 JLINK_WriteReg(R2, 0x000000FF)  returns 0x00 (0000ms, 0752ms total)
T1644 001:854 JLINK_WriteReg(R3, 0x00000000)  returns 0x00 (0000ms, 0752ms total)
T1644 001:854 JLINK_WriteReg(R4, 0x00000000)  returns 0x00 (0000ms, 0752ms total)
T1644 001:854 JLINK_WriteReg(R5, 0x00000000)  returns 0x00 (0000ms, 0752ms total)
T1644 001:854 JLINK_WriteReg(R6, 0x00000000)  returns 0x00 (0000ms, 0752ms total)
T1644 001:854 JLINK_WriteReg(R7, 0x00000000)  returns 0x00 (0000ms, 0752ms total)
T1644 001:854 JLINK_WriteReg(R8, 0x00000000)  returns 0x00 (0000ms, 0752ms total)
T1644 001:854 JLINK_WriteReg(R9, 0x2000017C)  returns 0x00 (0000ms, 0752ms total)
T1644 001:854 JLINK_WriteReg(R10, 0x00000000)  returns 0x00 (0000ms, 0752ms total)
T1644 001:854 JLINK_WriteReg(R11, 0x00000000)  returns 0x00 (0000ms, 0752ms total)
T1644 001:854 JLINK_WriteReg(R12, 0x00000000)  returns 0x00 (0000ms, 0752ms total)
T1644 001:854 JLINK_WriteReg(R13 (SP), 0x20001000)  returns 0x00 (0000ms, 0752ms total)
T1644 001:854 JLINK_WriteReg(R14, 0x20000001)  returns 0x00 (0000ms, 0752ms total)
T1644 001:854 JLINK_WriteReg(R15 (PC), 0x200000BC)  returns 0x00 (0001ms, 0753ms total)
T1644 001:855 JLINK_WriteReg(XPSR, 0x01000000)  returns 0x00 (0000ms, 0753ms total)
T1644 001:855 JLINK_WriteReg(MSP, 0x20001000)  returns 0x00 (0000ms, 0753ms total)
T1644 001:855 JLINK_WriteReg(PSP, 0x20001000)  returns 0x00 (0000ms, 0753ms total)
T1644 001:855 JLINK_WriteReg(CFBP, 0x00000000)  returns 0x00 (0000ms, 0753ms total)
T1644 001:855 JLINK_SetBPEx(Addr = 0x20000000, Type = 0xFFFFFFF2)  returns 0x00000005 (0000ms, 0753ms total)
T1644 001:855 JLINK_Go() (0002ms, 0755ms total)
T1644 001:857 JLINK_IsHalted()  returns FALSE (0002ms, 0757ms total)
T1644 001:871 JLINK_IsHalted()  returns FALSE (0000ms, 0755ms total)
T1644 001:873 JLINK_IsHalted()  returns FALSE (0000ms, 0755ms total)
T1644 001:875 JLINK_IsHalted()  returns FALSE (0003ms, 0758ms total)
T1644 001:890 JLINK_IsHalted()  returns FALSE (0002ms, 0757ms total)
T1644 001:902 JLINK_IsHalted()  returns FALSE (0000ms, 0755ms total)
T1644 001:904 JLINK_IsHalted()  returns FALSE (0000ms, 0755ms total)
T1644 001:906 JLINK_IsHalted()  returns FALSE (0000ms, 0755ms total)
T1644 001:915 JLINK_IsHalted()  returns FALSE (0000ms, 0755ms total)
T1644 001:917 JLINK_IsHalted()  returns FALSE (0000ms, 0755ms total)
T1644 001:919 JLINK_IsHalted()  returns FALSE (0000ms, 0755ms total)
T1644 001:921 JLINK_IsHalted()  returns FALSE (0001ms, 0756ms total)
T1644 001:933 JLINK_IsHalted()  returns FALSE (0000ms, 0755ms total)
T1644 001:935 JLINK_IsHalted()  returns FALSE (0003ms, 0758ms total)
T1644 001:944 JLINK_IsHalted()  returns FALSE (0000ms, 0755ms total)
T1644 001:946 JLINK_IsHalted()  returns FALSE (0000ms, 0755ms total)
T1644 001:948 JLINK_IsHalted()  returns FALSE (0000ms, 0755ms total)
T1644 001:950 JLINK_IsHalted()  returns FALSE (0000ms, 0755ms total)
T1644 001:952 JLINK_IsHalted()  returns FALSE (0001ms, 0756ms total)
T1644 001:976 JLINK_IsHalted()  returns FALSE (0000ms, 0755ms total)
T1644 001:978 JLINK_IsHalted()  returns FALSE (0000ms, 0755ms total)
T1644 001:980 JLINK_IsHalted()  returns FALSE (0000ms, 0755ms total)
T1644 001:982 JLINK_IsHalted()  returns FALSE (0000ms, 0755ms total)
T1644 001:984 JLINK_IsHalted()  returns FALSE (0001ms, 0756ms total)
T1644 001:999 JLINK_IsHalted()  returns FALSE (0002ms, 0757ms total)
T1644 002:012 JLINK_IsHalted()  returns FALSE (0000ms, 0755ms total)
T1644 002:024 JLINK_IsHalted()  returns FALSE (0000ms, 0755ms total)
T1644 002:026 JLINK_IsHalted()  returns FALSE (0000ms, 0755ms total)
T1644 002:028 JLINK_IsHalted()  returns FALSE (0005ms, 0760ms total)
T1644 002:042 JLINK_IsHalted()  returns FALSE (0000ms, 0755ms total)
T1644 002:044 JLINK_IsHalted()  returns FALSE (0003ms, 0758ms total)
T1644 002:054 JLINK_IsHalted()  returns FALSE (0000ms, 0755ms total)
T1644 002:056 JLINK_IsHalted()  returns FALSE (0000ms, 0755ms total)
T1644 002:058 JLINK_IsHalted()  returns FALSE (0000ms, 0755ms total)
T1644 002:060 JLINK_IsHalted()  returns FALSE (0002ms, 0757ms total)
T1644 002:073 JLINK_IsHalted()  returns FALSE (0000ms, 0755ms total)
T1644 002:075 JLINK_IsHalted()  returns FALSE (0001ms, 0756ms total)
T1644 002:087 JLINK_IsHalted()  returns FALSE (0000ms, 0755ms total)
T1644 002:089 JLINK_IsHalted()  returns FALSE (0000ms, 0755ms total)
T1644 002:091 JLINK_IsHalted()  returns FALSE (0001ms, 0756ms total)
T1644 002:102 JLINK_IsHalted()  returns FALSE (0000ms, 0755ms total)
T1644 002:104 JLINK_IsHalted()  returns FALSE (0000ms, 0755ms total)
T1644 002:106 JLINK_IsHalted()  returns FALSE (0001ms, 0756ms total)
T1644 002:122 JLINK_IsHalted()  returns FALSE (0000ms, 0755ms total)
T1644 002:124 JLINK_IsHalted()  returns FALSE (0000ms, 0755ms total)
T1644 002:136 JLINK_IsHalted()  returns FALSE (0000ms, 0755ms total)
T1644 002:138 JLINK_IsHalted()  returns FALSE (0001ms, 0756ms total)
T1644 002:174 JLINK_IsHalted()  returns FALSE (0001ms, 0756ms total)
T1644 002:185 JLINK_IsHalted()  returns FALSE (0004ms, 0759ms total)
T1644 002:198 JLINK_IsHalted()  returns FALSE (0001ms, 0756ms total)
T1644 002:203 JLINK_IsHalted()  returns FALSE (0001ms, 0756ms total)
T1644 002:214 JLINK_IsHalted()  returns FALSE (0000ms, 0755ms total)
T1644 002:216 JLINK_IsHalted()  returns FALSE (0000ms, 0755ms total)
T1644 002:218 JLINK_IsHalted()  returns FALSE (0000ms, 0755ms total)
T1644 002:229 JLINK_IsHalted()  returns FALSE (0000ms, 0755ms total)
T1644 002:231 JLINK_IsHalted()  returns FALSE (0000ms, 0755ms total)
T1644 002:233 JLINK_IsHalted()  returns FALSE (0000ms, 0755ms total)
T1644 002:247 JLINK_IsHalted()  returns FALSE (0001ms, 0756ms total)
T1644 002:259 JLINK_IsHalted() -- CPU_ReadMem(2 bytes @ 0x20000000)  returns TRUE (0007ms, 0762ms total)
T1644 002:266 JLINK_ReadReg(R15 (PC))  returns 0x20000000 (0000ms, 0755ms total)
T1644 002:266 JLINK_ClrBPEx(BPHandle = 0x00000005)  returns 0x00 (0000ms, 0755ms total)
T1644 002:266 JLINK_ReadReg(R0)  returns 0x00000000 (0000ms, 0755ms total)
T1644 002:267 JLINK_WriteReg(R0, 0x00000001)  returns 0x00 (0000ms, 0755ms total)
T1644 002:267 JLINK_WriteReg(R1, 0x00004000)  returns 0x00 (0000ms, 0755ms total)
T1644 002:267 JLINK_WriteReg(R2, 0x000000FF)  returns 0x00 (0000ms, 0755ms total)
T1644 002:267 JLINK_WriteReg(R3, 0x00000000)  returns 0x00 (0000ms, 0755ms total)
T1644 002:267 JLINK_WriteReg(R4, 0x00000000)  returns 0x00 (0000ms, 0755ms total)
T1644 002:267 JLINK_WriteReg(R5, 0x00000000)  returns 0x00 (0000ms, 0755ms total)
T1644 002:267 JLINK_WriteReg(R6, 0x00000000)  returns 0x00 (0001ms, 0756ms total)
T1644 002:268 JLINK_WriteReg(R7, 0x00000000)  returns 0x00 (0000ms, 0756ms total)
T1644 002:268 JLINK_WriteReg(R8, 0x00000000)  returns 0x00 (0000ms, 0756ms total)
T1644 002:268 JLINK_WriteReg(R9, 0x2000017C)  returns 0x00 (0000ms, 0756ms total)
T1644 002:268 JLINK_WriteReg(R10, 0x00000000)  returns 0x00 (0000ms, 0756ms total)
T1644 002:268 JLINK_WriteReg(R11, 0x00000000)  returns 0x00 (0000ms, 0756ms total)
T1644 002:268 JLINK_WriteReg(R12, 0x00000000)  returns 0x00 (0000ms, 0756ms total)
T1644 002:268 JLINK_WriteReg(R13 (SP), 0x20001000)  returns 0x00 (0000ms, 0756ms total)
T1644 002:268 JLINK_WriteReg(R14, 0x20000001)  returns 0x00 (0000ms, 0756ms total)
T1644 002:268 JLINK_WriteReg(R15 (PC), 0x20000082)  returns 0x00 (0000ms, 0756ms total)
T1644 002:268 JLINK_WriteReg(XPSR, 0x01000000)  returns 0x00 (0000ms, 0756ms total)
T1644 002:268 JLINK_WriteReg(MSP, 0x20001000)  returns 0x00 (0000ms, 0756ms total)
T1644 002:268 JLINK_WriteReg(PSP, 0x20001000)  returns 0x00 (0000ms, 0756ms total)
T1644 002:268 JLINK_WriteReg(CFBP, 0x00000000)  returns 0x00 (0000ms, 0756ms total)
T1644 002:268 JLINK_SetBPEx(Addr = 0x20000000, Type = 0xFFFFFFF2)  returns 0x00000006 (0000ms, 0756ms total)
T1644 002:268 JLINK_Go() (0002ms, 0758ms total)
T1644 002:270 JLINK_IsHalted() -- CPU_ReadMem(2 bytes @ 0x20000000)  returns TRUE (0004ms, 0762ms total)
T1644 002:274 JLINK_ReadReg(R15 (PC))  returns 0x20000000 (0000ms, 0758ms total)
T1644 002:274 JLINK_ClrBPEx(BPHandle = 0x00000006)  returns 0x00 (0000ms, 0758ms total)
T1644 002:274 JLINK_ReadReg(R0)  returns 0x00000000 (0000ms, 0758ms total)
T1644 002:352 JLINK_WriteMem(0x20000000, 0x0180 Bytes, ...) - Data: 00 BE 0A E0 0D 78 2D 06 68 40 08 24 40 00 00 D3 ... -- CPU_WriteMem(384 bytes @ 0x20000000)  returns 0x180 (0005ms, 0763ms total)
T1644 002:357 JLINK_WriteReg(R0, 0x08000000)  returns 0x00 (0000ms, 0763ms total)
T1644 002:357 JLINK_WriteReg(R1, 0x0A037A00)  returns 0x00 (0000ms, 0763ms total)
T1644 002:358 JLINK_WriteReg(R2, 0x00000002)  returns 0x00 (0000ms, 0763ms total)
T1644 002:358 JLINK_WriteReg(R3, 0x00000000)  returns 0x00 (0000ms, 0763ms total)
T1644 002:358 JLINK_WriteReg(R4, 0x00000000)  returns 0x00 (0000ms, 0763ms total)
T1644 002:358 JLINK_WriteReg(R5, 0x00000000)  returns 0x00 (0000ms, 0763ms total)
T1644 002:358 JLINK_WriteReg(R6, 0x00000000)  returns 0x00 (0000ms, 0763ms total)
T1644 002:358 JLINK_WriteReg(R7, 0x00000000)  returns 0x00 (0000ms, 0763ms total)
T1644 002:358 JLINK_WriteReg(R8, 0x00000000)  returns 0x00 (0000ms, 0763ms total)
T1644 002:358 JLINK_WriteReg(R9, 0x2000017C)  returns 0x00 (0000ms, 0763ms total)
T1644 002:358 JLINK_WriteReg(R10, 0x00000000)  returns 0x00 (0000ms, 0763ms total)
T1644 002:358 JLINK_WriteReg(R11, 0x00000000)  returns 0x00 (0000ms, 0763ms total)
T1644 002:358 JLINK_WriteReg(R12, 0x00000000)  returns 0x00 (0000ms, 0763ms total)
T1644 002:358 JLINK_WriteReg(R13 (SP), 0x20001000)  returns 0x00 (0000ms, 0763ms total)
T1644 002:358 JLINK_WriteReg(R14, 0x20000001)  returns 0x00 (0000ms, 0763ms total)
T1644 002:358 JLINK_WriteReg(R15 (PC), 0x20000054)  returns 0x00 (0000ms, 0763ms total)
T1644 002:358 JLINK_WriteReg(XPSR, 0x01000000)  returns 0x00 (0000ms, 0763ms total)
T1644 002:358 JLINK_WriteReg(MSP, 0x20001000)  returns 0x00 (0000ms, 0763ms total)
T1644 002:358 JLINK_WriteReg(PSP, 0x20001000)  returns 0x00 (0000ms, 0763ms total)
T1644 002:358 JLINK_WriteReg(CFBP, 0x00000000)  returns 0x00 (0000ms, 0763ms total)
T1644 002:358 JLINK_SetBPEx(Addr = 0x20000000, Type = 0xFFFFFFF2) -- CPU_ReadMem(2 bytes @ 0x20000000)  returns 0x00000007 (0002ms, 0765ms total)
T1644 002:360 JLINK_Go() -- CPU_WriteMem(2 bytes @ 0x20000000) (0003ms, 0768ms total)
T1644 002:363 JLINK_IsHalted() -- CPU_ReadMem(2 bytes @ 0x20000000)  returns TRUE (0005ms, 0773ms total)
T1644 002:368 JLINK_ReadReg(R15 (PC))  returns 0x20000000 (0000ms, 0768ms total)
T1644 002:368 JLINK_ClrBPEx(BPHandle = 0x00000007)  returns 0x00 (0000ms, 0768ms total)
T1644 002:368 JLINK_ReadReg(R0)  returns 0x00000000 (0000ms, 0768ms total)
T1644 002:370 JLINK_WriteMem(0x20000180, 0x0400 Bytes, ...) - Data: 28 2F 00 20 29 02 00 08 AF 06 00 08 01 06 00 08 ... -- CPU_WriteMem(1024 bytes @ 0x20000180)  returns 0x400 (0013ms, 0781ms total)
T1644 002:383 JLINK_WriteReg(R0, 0x08000000)  returns 0x00 (0000ms, 0781ms total)
T1644 002:383 JLINK_WriteReg(R1, 0x00000400)  returns 0x00 (0000ms, 0781ms total)
T1644 002:383 JLINK_WriteReg(R2, 0x20000180)  returns 0x00 (0000ms, 0781ms total)
T1644 002:383 JLINK_WriteReg(R3, 0x00000000)  returns 0x00 (0000ms, 0781ms total)
T1644 002:383 JLINK_WriteReg(R4, 0x00000000)  returns 0x00 (0000ms, 0781ms total)
T1644 002:383 JLINK_WriteReg(R5, 0x00000000)  returns 0x00 (0000ms, 0781ms total)
T1644 002:383 JLINK_WriteReg(R6, 0x00000000)  returns 0x00 (0000ms, 0781ms total)
T1644 002:383 JLINK_WriteReg(R7, 0x00000000)  returns 0x00 (0000ms, 0781ms total)
T1644 002:383 JLINK_WriteReg(R8, 0x00000000)  returns 0x00 (0000ms, 0781ms total)
T1644 002:383 JLINK_WriteReg(R9, 0x2000017C)  returns 0x00 (0000ms, 0781ms total)
T1644 002:383 JLINK_WriteReg(R10, 0x00000000)  returns 0x00 (0000ms, 0781ms total)
T1644 002:383 JLINK_WriteReg(R11, 0x00000000)  returns 0x00 (0000ms, 0781ms total)
T1644 002:383 JLINK_WriteReg(R12, 0x00000000)  returns 0x00 (0000ms, 0781ms total)
T1644 002:383 JLINK_WriteReg(R13 (SP), 0x20001000)  returns 0x00 (0000ms, 0781ms total)
T1644 002:383 JLINK_WriteReg(R14, 0x20000001)  returns 0x00 (0000ms, 0781ms total)
T1644 002:383 JLINK_WriteReg(R15 (PC), 0x20000108)  returns 0x00 (0001ms, 0782ms total)
T1644 002:384 JLINK_WriteReg(XPSR, 0x01000000)  returns 0x00 (0000ms, 0782ms total)
T1644 002:384 JLINK_WriteReg(MSP, 0x20001000)  returns 0x00 (0000ms, 0782ms total)
T1644 002:384 JLINK_WriteReg(PSP, 0x20001000)  returns 0x00 (0000ms, 0782ms total)
T1644 002:384 JLINK_WriteReg(CFBP, 0x00000000)  returns 0x00 (0000ms, 0782ms total)
T1644 002:384 JLINK_SetBPEx(Addr = 0x20000000, Type = 0xFFFFFFF2)  returns 0x00000008 (0000ms, 0782ms total)
T1644 002:384 JLINK_Go() (0002ms, 0784ms total)
T1644 002:386 JLINK_IsHalted()  returns FALSE (0000ms, 0784ms total)
T1644 002:465 JLINK_IsHalted() -- CPU_ReadMem(2 bytes @ 0x20000000)  returns TRUE (0006ms, 0790ms total)
T1644 002:471 JLINK_ReadReg(R15 (PC))  returns 0x20000000 (0000ms, 0784ms total)
T1644 002:471 JLINK_ClrBPEx(BPHandle = 0x00000008)  returns 0x00 (0000ms, 0784ms total)
T1644 002:471 JLINK_ReadReg(R0)  returns 0x00000000 (0000ms, 0784ms total)
T1644 002:473 JLINK_WriteMem(0x20000180, 0x0400 Bytes, ...) - Data: 04 EB 10 48 10 49 0A 78 02 70 0C 48 0F 49 0A 68 ... -- CPU_WriteMem(1024 bytes @ 0x20000180)  returns 0x400 (0014ms, 0798ms total)
T1644 002:487 JLINK_WriteReg(R0, 0x08000400)  returns 0x00 (0000ms, 0798ms total)
T1644 002:487 JLINK_WriteReg(R1, 0x00000400)  returns 0x00 (0000ms, 0798ms total)
T1644 002:487 JLINK_WriteReg(R2, 0x20000180)  returns 0x00 (0000ms, 0798ms total)
T1644 002:487 JLINK_WriteReg(R3, 0x00000000)  returns 0x00 (0000ms, 0798ms total)
T1644 002:487 JLINK_WriteReg(R4, 0x00000000)  returns 0x00 (0000ms, 0798ms total)
T1644 002:487 JLINK_WriteReg(R5, 0x00000000)  returns 0x00 (0000ms, 0798ms total)
T1644 002:487 JLINK_WriteReg(R6, 0x00000000)  returns 0x00 (0000ms, 0798ms total)
T1644 002:487 JLINK_WriteReg(R7, 0x00000000)  returns 0x00 (0000ms, 0798ms total)
T1644 002:487 JLINK_WriteReg(R8, 0x00000000)  returns 0x00 (0000ms, 0798ms total)
T1644 002:487 JLINK_WriteReg(R9, 0x2000017C)  returns 0x00 (0000ms, 0798ms total)
T1644 002:487 JLINK_WriteReg(R10, 0x00000000)  returns 0x00 (0000ms, 0798ms total)
T1644 002:487 JLINK_WriteReg(R11, 0x00000000)  returns 0x00 (0000ms, 0798ms total)
T1644 002:487 JLINK_WriteReg(R12, 0x00000000)  returns 0x00 (0000ms, 0798ms total)
T1644 002:487 JLINK_WriteReg(R13 (SP), 0x20001000)  returns 0x00 (0000ms, 0798ms total)
T1644 002:487 JLINK_WriteReg(R14, 0x20000001)  returns 0x00 (0000ms, 0798ms total)
T1644 002:487 JLINK_WriteReg(R15 (PC), 0x20000108)  returns 0x00 (0001ms, 0799ms total)
T1644 002:488 JLINK_WriteReg(XPSR, 0x01000000)  returns 0x00 (0000ms, 0799ms total)
T1644 002:488 JLINK_WriteReg(MSP, 0x20001000)  returns 0x00 (0000ms, 0799ms total)
T1644 002:488 JLINK_WriteReg(PSP, 0x20001000)  returns 0x00 (0000ms, 0799ms total)
T1644 002:488 JLINK_WriteReg(CFBP, 0x00000000)  returns 0x00 (0000ms, 0799ms total)
T1644 002:488 JLINK_SetBPEx(Addr = 0x20000000, Type = 0xFFFFFFF2)  returns 0x00000009 (0000ms, 0799ms total)
T1644 002:488 JLINK_Go() (0002ms, 0801ms total)
T1644 002:490 JLINK_IsHalted()  returns FALSE (0001ms, 0802ms total)
T1644 002:525 JLINK_IsHalted() -- CPU_ReadMem(2 bytes @ 0x20000000)  returns TRUE (0003ms, 0804ms total)
T1644 002:529 JLINK_ReadReg(R15 (PC))  returns 0x20000000 (0000ms, 0801ms total)
T1644 002:529 JLINK_ClrBPEx(BPHandle = 0x00000009)  returns 0x00 (0000ms, 0801ms total)
T1644 002:529 JLINK_ReadReg(R0)  returns 0x00000000 (0000ms, 0801ms total)
T1644 002:535 JLINK_WriteMem(0x20000180, 0x0400 Bytes, ...) - Data: 04 54 00 08 08 54 00 08 0C 54 00 08 10 54 00 08 ... -- CPU_WriteMem(1024 bytes @ 0x20000180)  returns 0x400 (0012ms, 0813ms total)
T1644 002:548 JLINK_WriteReg(R0, 0x08000800)  returns 0x00 (0000ms, 0814ms total)
T1644 002:548 JLINK_WriteReg(R1, 0x00000400)  returns 0x00 (0000ms, 0814ms total)
T1644 002:548 JLINK_WriteReg(R2, 0x20000180)  returns 0x00 (0000ms, 0814ms total)
T1644 002:548 JLINK_WriteReg(R3, 0x00000000)  returns 0x00 (0000ms, 0814ms total)
T1644 002:548 JLINK_WriteReg(R4, 0x00000000)  returns 0x00 (0000ms, 0814ms total)
T1644 002:548 JLINK_WriteReg(R5, 0x00000000)  returns 0x00 (0000ms, 0814ms total)
T1644 002:548 JLINK_WriteReg(R6, 0x00000000)  returns 0x00 (0000ms, 0814ms total)
T1644 002:548 JLINK_WriteReg(R7, 0x00000000)  returns 0x00 (0000ms, 0814ms total)
T1644 002:548 JLINK_WriteReg(R8, 0x00000000)  returns 0x00 (0000ms, 0814ms total)
T1644 002:548 JLINK_WriteReg(R9, 0x2000017C)  returns 0x00 (0000ms, 0814ms total)
T1644 002:548 JLINK_WriteReg(R10, 0x00000000)  returns 0x00 (0000ms, 0814ms total)
T1644 002:548 JLINK_WriteReg(R11, 0x00000000)  returns 0x00 (0000ms, 0814ms total)
T1644 002:548 JLINK_WriteReg(R12, 0x00000000)  returns 0x00 (0000ms, 0814ms total)
T1644 002:549 JLINK_WriteReg(R13 (SP), 0x20001000)  returns 0x00 (0000ms, 0815ms total)
T1644 002:549 JLINK_WriteReg(R14, 0x20000001)  returns 0x00 (0000ms, 0815ms total)
T1644 002:549 JLINK_WriteReg(R15 (PC), 0x20000108)  returns 0x00 (0000ms, 0815ms total)
T1644 002:549 JLINK_WriteReg(XPSR, 0x01000000)  returns 0x00 (0000ms, 0815ms total)
T1644 002:549 JLINK_WriteReg(MSP, 0x20001000)  returns 0x00 (0000ms, 0815ms total)
T1644 002:549 JLINK_WriteReg(PSP, 0x20001000)  returns 0x00 (0000ms, 0815ms total)
T1644 002:549 JLINK_WriteReg(CFBP, 0x00000000)  returns 0x00 (0000ms, 0815ms total)
T1644 002:549 JLINK_SetBPEx(Addr = 0x20000000, Type = 0xFFFFFFF2)  returns 0x0000000A (0000ms, 0815ms total)
T1644 002:549 JLINK_Go() (0002ms, 0817ms total)
T1644 002:551 JLINK_IsHalted()  returns FALSE (0001ms, 0818ms total)
T1644 002:591 JLINK_IsHalted() -- CPU_ReadMem(2 bytes @ 0x20000000)  returns TRUE (0004ms, 0821ms total)
T1644 002:595 JLINK_ReadReg(R15 (PC))  returns 0x20000000 (0000ms, 0817ms total)
T1644 002:595 JLINK_ClrBPEx(BPHandle = 0x0000000A)  returns 0x00 (0000ms, 0817ms total)
T1644 002:595 JLINK_ReadReg(R0)  returns 0x00000000 (0000ms, 0817ms total)
T1644 002:597 JLINK_WriteMem(0x20000180, 0x0400 Bytes, ...) - Data: FF F7 3A FB 00 BF 00 BF 00 20 20 80 00 BF D5 E7 ... -- CPU_WriteMem(1024 bytes @ 0x20000180)  returns 0x400 (0013ms, 0830ms total)
T1644 002:611 JLINK_WriteReg(R0, 0x08000C00)  returns 0x00 (0000ms, 0831ms total)
T1644 002:611 JLINK_WriteReg(R1, 0x00000400)  returns 0x00 (0000ms, 0831ms total)
T1644 002:611 JLINK_WriteReg(R2, 0x20000180)  returns 0x00 (0000ms, 0831ms total)
T1644 002:611 JLINK_WriteReg(R3, 0x00000000)  returns 0x00 (0001ms, 0832ms total)
T1644 002:612 JLINK_WriteReg(R4, 0x00000000)  returns 0x00 (0000ms, 0832ms total)
T1644 002:612 JLINK_WriteReg(R5, 0x00000000)  returns 0x00 (0000ms, 0832ms total)
T1644 002:612 JLINK_WriteReg(R6, 0x00000000)  returns 0x00 (0000ms, 0832ms total)
T1644 002:612 JLINK_WriteReg(R7, 0x00000000)  returns 0x00 (0000ms, 0832ms total)
T1644 002:612 JLINK_WriteReg(R8, 0x00000000)  returns 0x00 (0000ms, 0832ms total)
T1644 002:612 JLINK_WriteReg(R9, 0x2000017C)  returns 0x00 (0000ms, 0832ms total)
T1644 002:612 JLINK_WriteReg(R10, 0x00000000)  returns 0x00 (0000ms, 0832ms total)
T1644 002:612 JLINK_WriteReg(R11, 0x00000000)  returns 0x00 (0000ms, 0832ms total)
T1644 002:612 JLINK_WriteReg(R12, 0x00000000)  returns 0x00 (0000ms, 0832ms total)
T1644 002:612 JLINK_WriteReg(R13 (SP), 0x20001000)  returns 0x00 (0001ms, 0833ms total)
T1644 002:613 JLINK_WriteReg(R14, 0x20000001)  returns 0x00 (0000ms, 0833ms total)
T1644 002:613 JLINK_WriteReg(R15 (PC), 0x20000108)  returns 0x00 (0000ms, 0833ms total)
T1644 002:613 JLINK_WriteReg(XPSR, 0x01000000)  returns 0x00 (0000ms, 0833ms total)
T1644 002:613 JLINK_WriteReg(MSP, 0x20001000)  returns 0x00 (0000ms, 0833ms total)
T1644 002:613 JLINK_WriteReg(PSP, 0x20001000)  returns 0x00 (0000ms, 0833ms total)
T1644 002:613 JLINK_WriteReg(CFBP, 0x00000000)  returns 0x00 (0000ms, 0833ms total)
T1644 002:613 JLINK_SetBPEx(Addr = 0x20000000, Type = 0xFFFFFFF2)  returns 0x0000000B (0000ms, 0833ms total)
T1644 002:613 JLINK_Go() (0002ms, 0835ms total)
T1644 002:615 JLINK_IsHalted()  returns FALSE (0001ms, 0836ms total)
T1644 002:653 JLINK_IsHalted() -- CPU_ReadMem(2 bytes @ 0x20000000)  returns TRUE (0004ms, 0839ms total)
T1644 002:657 JLINK_ReadReg(R15 (PC))  returns 0x20000000 (0000ms, 0835ms total)
T1644 002:657 JLINK_ClrBPEx(BPHandle = 0x0000000B)  returns 0x00 (0001ms, 0836ms total)
T1644 002:658 JLINK_ReadReg(R0)  returns 0x00000000 (0000ms, 0836ms total)
T1644 002:661 JLINK_WriteMem(0x20000180, 0x0400 Bytes, ...) - Data: 2F 60 28 80 EB E7 7B 48 00 68 87 42 03 D2 46 F6 ... -- CPU_WriteMem(1024 bytes @ 0x20000180)  returns 0x400 (0012ms, 0848ms total)
T1644 002:674 JLINK_WriteReg(R0, 0x08001000)  returns 0x00 (0000ms, 0849ms total)
T1644 002:674 JLINK_WriteReg(R1, 0x00000400)  returns 0x00 (0000ms, 0849ms total)
T1644 002:674 JLINK_WriteReg(R2, 0x20000180)  returns 0x00 (0000ms, 0849ms total)
T1644 002:674 JLINK_WriteReg(R3, 0x00000000)  returns 0x00 (0000ms, 0849ms total)
T1644 002:674 JLINK_WriteReg(R4, 0x00000000)  returns 0x00 (0000ms, 0849ms total)
T1644 002:674 JLINK_WriteReg(R5, 0x00000000)  returns 0x00 (0000ms, 0849ms total)
T1644 002:674 JLINK_WriteReg(R6, 0x00000000)  returns 0x00 (0000ms, 0849ms total)
T1644 002:674 JLINK_WriteReg(R7, 0x00000000)  returns 0x00 (0000ms, 0849ms total)
T1644 002:674 JLINK_WriteReg(R8, 0x00000000)  returns 0x00 (0000ms, 0849ms total)
T1644 002:674 JLINK_WriteReg(R9, 0x2000017C)  returns 0x00 (0000ms, 0849ms total)
T1644 002:674 JLINK_WriteReg(R10, 0x00000000)  returns 0x00 (0000ms, 0849ms total)
T1644 002:674 JLINK_WriteReg(R11, 0x00000000)  returns 0x00 (0000ms, 0849ms total)
T1644 002:674 JLINK_WriteReg(R12, 0x00000000)  returns 0x00 (0000ms, 0849ms total)
T1644 002:674 JLINK_WriteReg(R13 (SP), 0x20001000)  returns 0x00 (0000ms, 0849ms total)
T1644 002:674 JLINK_WriteReg(R14, 0x20000001)  returns 0x00 (0000ms, 0849ms total)
T1644 002:674 JLINK_WriteReg(R15 (PC), 0x20000108)  returns 0x00 (0000ms, 0849ms total)
T1644 002:674 JLINK_WriteReg(XPSR, 0x01000000)  returns 0x00 (0000ms, 0849ms total)
T1644 002:675 JLINK_WriteReg(MSP, 0x20001000)  returns 0x00 (0000ms, 0850ms total)
T1644 002:675 JLINK_WriteReg(PSP, 0x20001000)  returns 0x00 (0000ms, 0850ms total)
T1644 002:675 JLINK_WriteReg(CFBP, 0x00000000)  returns 0x00 (0000ms, 0850ms total)
T1644 002:675 JLINK_SetBPEx(Addr = 0x20000000, Type = 0xFFFFFFF2)  returns 0x0000000C (0000ms, 0850ms total)
T1644 002:675 JLINK_Go() (0002ms, 0852ms total)
T1644 002:677 JLINK_IsHalted()  returns FALSE (0000ms, 0852ms total)
T1644 002:717 JLINK_IsHalted() -- CPU_ReadMem(2 bytes @ 0x20000000)  returns TRUE (0008ms, 0860ms total)
T1644 002:725 JLINK_ReadReg(R15 (PC))  returns 0x20000000 (0000ms, 0852ms total)
T1644 002:725 JLINK_ClrBPEx(BPHandle = 0x0000000C)  returns 0x00 (0000ms, 0852ms total)
T1644 002:725 JLINK_ReadReg(R0)  returns 0x00000000 (0000ms, 0852ms total)
T1644 002:727 JLINK_WriteMem(0x20000180, 0x0400 Bytes, ...) - Data: 88 47 10 BD 2C 00 00 20 7F B5 04 46 0D 46 00 26 ... -- CPU_WriteMem(1024 bytes @ 0x20000180)  returns 0x400 (0012ms, 0864ms total)
T1644 002:739 JLINK_WriteReg(R0, 0x08001400)  returns 0x00 (0001ms, 0865ms total)
T1644 002:740 JLINK_WriteReg(R1, 0x00000400)  returns 0x00 (0000ms, 0865ms total)
T1644 002:740 JLINK_WriteReg(R2, 0x20000180)  returns 0x00 (0000ms, 0865ms total)
T1644 002:740 JLINK_WriteReg(R3, 0x00000000)  returns 0x00 (0000ms, 0865ms total)
T1644 002:740 JLINK_WriteReg(R4, 0x00000000)  returns 0x00 (0000ms, 0865ms total)
T1644 002:740 JLINK_WriteReg(R5, 0x00000000)  returns 0x00 (0000ms, 0865ms total)
T1644 002:740 JLINK_WriteReg(R6, 0x00000000)  returns 0x00 (0000ms, 0865ms total)
T1644 002:740 JLINK_WriteReg(R7, 0x00000000)  returns 0x00 (0000ms, 0865ms total)
T1644 002:740 JLINK_WriteReg(R8, 0x00000000)  returns 0x00 (0000ms, 0865ms total)
T1644 002:740 JLINK_WriteReg(R9, 0x2000017C)  returns 0x00 (0000ms, 0865ms total)
T1644 002:740 JLINK_WriteReg(R10, 0x00000000)  returns 0x00 (0000ms, 0865ms total)
T1644 002:740 JLINK_WriteReg(R11, 0x00000000)  returns 0x00 (0000ms, 0865ms total)
T1644 002:740 JLINK_WriteReg(R12, 0x00000000)  returns 0x00 (0000ms, 0865ms total)
T1644 002:740 JLINK_WriteReg(R13 (SP), 0x20001000)  returns 0x00 (0000ms, 0865ms total)
T1644 002:740 JLINK_WriteReg(R14, 0x20000001)  returns 0x00 (0000ms, 0865ms total)
T1644 002:740 JLINK_WriteReg(R15 (PC), 0x20000108)  returns 0x00 (0000ms, 0865ms total)
T1644 002:740 JLINK_WriteReg(XPSR, 0x01000000)  returns 0x00 (0000ms, 0865ms total)
T1644 002:740 JLINK_WriteReg(MSP, 0x20001000)  returns 0x00 (0000ms, 0865ms total)
T1644 002:740 JLINK_WriteReg(PSP, 0x20001000)  returns 0x00 (0000ms, 0865ms total)
T1644 002:740 JLINK_WriteReg(CFBP, 0x00000000)  returns 0x00 (0001ms, 0866ms total)
T1644 002:741 JLINK_SetBPEx(Addr = 0x20000000, Type = 0xFFFFFFF2)  returns 0x0000000D (0000ms, 0866ms total)
T1644 002:741 JLINK_Go() (0002ms, 0868ms total)
T1644 002:743 JLINK_IsHalted()  returns FALSE (0000ms, 0868ms total)
T1644 002:776 JLINK_IsHalted() -- CPU_ReadMem(2 bytes @ 0x20000000)  returns TRUE (0004ms, 0872ms total)
T1644 002:780 JLINK_ReadReg(R15 (PC))  returns 0x20000000 (0000ms, 0868ms total)
T1644 002:780 JLINK_ClrBPEx(BPHandle = 0x0000000D)  returns 0x00 (0000ms, 0868ms total)
T1644 002:780 JLINK_ReadReg(R0)  returns 0x00000000 (0000ms, 0868ms total)
T1644 002:785 JLINK_WriteMem(0x20000180, 0x0400 Bytes, ...) - Data: 4F F0 08 0C 07 1F 38 46 C7 F8 00 C0 4F F0 07 0C ... -- CPU_WriteMem(1024 bytes @ 0x20000180)  returns 0x400 (0013ms, 0881ms total)
T1644 002:798 JLINK_WriteReg(R0, 0x08001800)  returns 0x00 (0000ms, 0881ms total)
T1644 002:798 JLINK_WriteReg(R1, 0x00000400)  returns 0x00 (0000ms, 0881ms total)
T1644 002:798 JLINK_WriteReg(R2, 0x20000180)  returns 0x00 (0000ms, 0881ms total)
T1644 002:798 JLINK_WriteReg(R3, 0x00000000)  returns 0x00 (0000ms, 0881ms total)
T1644 002:798 JLINK_WriteReg(R4, 0x00000000)  returns 0x00 (0000ms, 0881ms total)
T1644 002:799 JLINK_WriteReg(R5, 0x00000000)  returns 0x00 (0000ms, 0882ms total)
T1644 002:799 JLINK_WriteReg(R6, 0x00000000)  returns 0x00 (0000ms, 0882ms total)
T1644 002:799 JLINK_WriteReg(R7, 0x00000000)  returns 0x00 (0000ms, 0882ms total)
T1644 002:799 JLINK_WriteReg(R8, 0x00000000)  returns 0x00 (0000ms, 0882ms total)
T1644 002:799 JLINK_WriteReg(R9, 0x2000017C)  returns 0x00 (0000ms, 0882ms total)
T1644 002:799 JLINK_WriteReg(R10, 0x00000000)  returns 0x00 (0000ms, 0882ms total)
T1644 002:799 JLINK_WriteReg(R11, 0x00000000)  returns 0x00 (0000ms, 0882ms total)
T1644 002:799 JLINK_WriteReg(R12, 0x00000000)  returns 0x00 (0000ms, 0882ms total)
T1644 002:799 JLINK_WriteReg(R13 (SP), 0x20001000)  returns 0x00 (0001ms, 0883ms total)
T1644 002:800 JLINK_WriteReg(R14, 0x20000001)  returns 0x00 (0000ms, 0883ms total)
T1644 002:800 JLINK_WriteReg(R15 (PC), 0x20000108)  returns 0x00 (0000ms, 0883ms total)
T1644 002:800 JLINK_WriteReg(XPSR, 0x01000000)  returns 0x00 (0000ms, 0883ms total)
T1644 002:800 JLINK_WriteReg(MSP, 0x20001000)  returns 0x00 (0000ms, 0883ms total)
T1644 002:800 JLINK_WriteReg(PSP, 0x20001000)  returns 0x00 (0000ms, 0883ms total)
T1644 002:800 JLINK_WriteReg(CFBP, 0x00000000)  returns 0x00 (0000ms, 0883ms total)
T1644 002:800 JLINK_SetBPEx(Addr = 0x20000000, Type = 0xFFFFFFF2)  returns 0x0000000E (0000ms, 0883ms total)
T1644 002:800 JLINK_Go() (0002ms, 0885ms total)
T1644 002:802 JLINK_IsHalted()  returns FALSE (0001ms, 0886ms total)
T1644 002:826 JLINK_IsHalted() -- CPU_ReadMem(2 bytes @ 0x20000000)  returns TRUE (0005ms, 0890ms total)
T1644 002:831 JLINK_ReadReg(R15 (PC))  returns 0x20000000 (0000ms, 0885ms total)
T1644 002:831 JLINK_ClrBPEx(BPHandle = 0x0000000E)  returns 0x00 (0000ms, 0885ms total)
T1644 002:831 JLINK_ReadReg(R0)  returns 0x00000000 (0000ms, 0885ms total)
T1644 002:837 JLINK_WriteMem(0x20000180, 0x0400 Bytes, ...) - Data: 20 80 BD E8 FF 9F 6F 48 00 78 00 28 03 DD 46 F6 ... -- CPU_WriteMem(1024 bytes @ 0x20000180)  returns 0x400 (0019ms, 0904ms total)
T1644 002:860 JLINK_WriteReg(R0, 0x08001C00)  returns 0x00 (0000ms, 0908ms total)
T1644 002:860 JLINK_WriteReg(R1, 0x00000400)  returns 0x00 (0000ms, 0908ms total)
T1644 002:860 JLINK_WriteReg(R2, 0x20000180)  returns 0x00 (0000ms, 0908ms total)
T1644 002:860 JLINK_WriteReg(R3, 0x00000000)  returns 0x00 (0000ms, 0908ms total)
T1644 002:860 JLINK_WriteReg(R4, 0x00000000)  returns 0x00 (0000ms, 0908ms total)
T1644 002:860 JLINK_WriteReg(R5, 0x00000000)  returns 0x00 (0000ms, 0908ms total)
T1644 002:860 JLINK_WriteReg(R6, 0x00000000)  returns 0x00 (0000ms, 0908ms total)
T1644 002:860 JLINK_WriteReg(R7, 0x00000000)  returns 0x00 (0000ms, 0908ms total)
T1644 002:860 JLINK_WriteReg(R8, 0x00000000)  returns 0x00 (0001ms, 0909ms total)
T1644 002:861 JLINK_WriteReg(R9, 0x2000017C)  returns 0x00 (0000ms, 0909ms total)
T1644 002:861 JLINK_WriteReg(R10, 0x00000000)  returns 0x00 (0000ms, 0909ms total)
T1644 002:861 JLINK_WriteReg(R11, 0x00000000)  returns 0x00 (0000ms, 0909ms total)
T1644 002:861 JLINK_WriteReg(R12, 0x00000000)  returns 0x00 (0000ms, 0909ms total)
T1644 002:861 JLINK_WriteReg(R13 (SP), 0x20001000)  returns 0x00 (0000ms, 0909ms total)
T1644 002:861 JLINK_WriteReg(R14, 0x20000001)  returns 0x00 (0000ms, 0909ms total)
T1644 002:861 JLINK_WriteReg(R15 (PC), 0x20000108)  returns 0x00 (0000ms, 0909ms total)
T1644 002:861 JLINK_WriteReg(XPSR, 0x01000000)  returns 0x00 (0000ms, 0909ms total)
